
T240C 000:576 SEGGER J-Link V4.86b Log File (0000ms, 0263ms total)
T240C 000:576 DLL Compiled: Jun 27 2014 20:11:00 (0000ms, 0263ms total)
T240C 000:576 Logging started @ 2014-10-07 16:26 (0000ms, 0263ms total)
T240C 000:576 JLINK_SetWarnOutHandler(...) (0000ms, 0263ms total)
T240C 000:576 JLINK_OpenEx(...)
Firmware: J-Link ARM V8 compiled Nov 25 2013 19:20:08
Hardware: V8.00
S/N: 17935099
Feature(s): RDI,FlashDL,FlashBP,JFlash  returns O.K. (0263ms, 0526ms total)
T240C 000:839 JLINK_SetErrorOutHandler(...) (0000ms, 0526ms total)
T240C 000:839 JLINK_ExecCommand("ProjectFile = "D:\tiaozhanbei\OV2640NEW\µ¥Æ¬»ú´úÂë\STM32F103R\MDK_Project\JLinkSettings.ini"", ...)  returns 0x00 (0000ms, 0526ms total)
T240C 000:849 JLINK_ExecCommand("Device = STM32F103RE", ...)Device "STM32F103RE" selected (512 KB flash, 64 KB RAM).  returns 0x00 (0005ms, 0531ms total)
T240C 000:854 JLINK_ExecCommand("DisableConnectionTimeout", ...)  returns 0x01 (0000ms, 0531ms total)
T240C 000:854 JLINK_GetHardwareVersion()  returns 0x13880 (0000ms, 0531ms total)
T240C 000:854 JLINK_GetDLLVersion()  returns 48602 (0000ms, 0531ms total)
T240C 000:854 JLINK_GetFirmwareString(...) (0000ms, 0531ms total)
T240C 000:861 JLINK_GetDLLVersion()  returns 48602 (0000ms, 0531ms total)
T240C 000:861 JLINK_GetCompileDateTime() (0000ms, 0531ms total)
T240C 000:863 JLINK_GetFirmwareString(...) (0000ms, 0531ms total)
T240C 000:866 JLINK_GetHardwareVersion()  returns 0x13880 (0000ms, 0531ms total)
T240C 000:875 JLINK_TIF_Select(JLINKARM_TIF_SWD)  returns 0x00 (0002ms, 0533ms total)
T240C 000:877 JLINK_SetSpeed(2000) (0000ms, 0533ms total)
T240C 000:877 JLINK_GetId() >0x108 TIF>Found SWD-DP with ID 0x1BA01477 >0x0D TIF> >0x28 TIF> >0x0D TIF> >0x28 TIF> >0x0D TIF> >0x21 TIF> >0x0D TIF> >0x28 TIF> >0x0D TIF> >0x28 TIF> >0x0D TIF> >0x28 TIF> >0x0D TIF> >0x21 TIF> >0x0D TIF> >0x21 TIF> >0x0D TIF> >0x28 TIF> >0x0D TIF> >0x21 TIF> >0x0D TIF> >0x21 TIF> >0x108 TIF>Found SWD-DP with ID 0x1BA01477 >0x0D TIF> >0x21 TIF> >0x0D TIF> >0x28 TIF> >0x0D TIF> >0x28 TIF> >0x0D TIF> >0x21 TIF> >0x0D TIF> >0x28 TIF> >0x0D TIF> >0x21 TIF> >0x0D TIF> >0x21 TIF>
 >0x0D TIF> >0x21 TIF> >0x0D TIF> >0x21 TIF> >0x0D TIF> >0x28 TIF> >0x0D TIF> >0x28 TIF> >0x0D TIF> >0x21 TIF> >0x0D TIF> >0x28 TIF> >0x0D TIF> >0x28 TIF> >0x0D TIF> >0x28 TIF> >0x0D TIF> >0x21 TIF> >0x0D TIF> >0x21 TIF> >0x0D TIF> >0x28 TIF> >0x0D TIF> >0x21 TIF> >0x0D TIF> >0x21 TIF>Found Cortex-M3 r1p1, Little endian. -- CPU_WriteMem(4 bytes @ 0xE0002000) -- CPU_ReadMem(4 bytes @ 0xE000EDF0) -- CPU_ReadMem(4 bytes @ 0xE0002000)FPUnit: 6 code (BP) slots and 2 literal slots
 -- CPU_ReadMem(4 bytes @ 0xE000EDFC) -- CPU_ReadMem(4 bytes @ 0xE0001000) -- CPU_WriteMem(4 bytes @ 0xE0001000) -- CPU_ReadMem(4 bytes @ 0xE00FF010)TPIU fitted. -- CPU_ReadMem(4 bytes @ 0xE00FF014)ETM fitted. -- CPU_ReadMem(4 bytes @ 0xE00FF018) >0x0D TIF> >0x21 TIF>  returns 0x1BA01477 (0060ms, 0593ms total)
T240C 000:937 JLINK_GetDeviceFamily()  returns 3 (0000ms, 0593ms total)
T240C 000:940 JLINK_ReadMem (0xE00FFFF0, 0x0010 Bytes, ...) -- CPU is running -- CPU_ReadMem(16 bytes @ 0xE00FFFF0) - Data: 0D 00 00 00 10 00 00 00 05 00 00 00 B1 00 00 00  returns 0x00 (0001ms, 0594ms total)
T240C 000:941 JLINK_ReadMem (0xE00FFFD0, 0x0020 Bytes, ...) -- CPU is running -- CPU_ReadMem(32 bytes @ 0xE00FFFD0) - Data: 00 00 00 00 00 00 00 00 00 00 00 00 00 00 00 00 ...  returns 0x00 (0001ms, 0595ms total)
T240C 000:942 JLINK_ReadMem (0xE00FF000, 0x0018 Bytes, ...) -- CPU is running -- CPU_ReadMem(24 bytes @ 0xE00FF000) - Data: 03 F0 F0 FF 03 20 F0 FF 03 30 F0 FF 03 10 F0 FF ...  returns 0x00 (0001ms, 0596ms total)
T240C 000:943 JLINK_ReadMemU32(0xE000ED00, 0x0001 Items, ...) -- CPU is running -- CPU_ReadMem(4 bytes @ 0xE000ED00) - Data: 31 C2 1F 41  returns 0x01 (0001ms, 0597ms total)
T240C 000:944 JLINK_SetResetType(JLINKARM_RESET_TYPE_NORMAL)  returns JLINKARM_RESET_TYPE_NORMAL (0000ms, 0597ms total)
T240C 000:944 JLINK_Reset() -- CPU is running -- CPU_WriteMem(4 bytes @ 0xE000EDF0) -- CPU is running -- CPU_WriteMem(4 bytes @ 0xE000EDFC) >0x35 TIF> -- CPU is running -- CPU_WriteMem(4 bytes @ 0xE000ED0C) -- CPU is running -- CPU_ReadMem(4 bytes @ 0xE000EDF0) -- CPU is running -- CPU_ReadMem(4 bytes @ 0xE000EDF0) -- CPU is running -- CPU_WriteMem(4 bytes @ 0xE000EDF0) -- CPU is running -- CPU_WriteMem(4 bytes @ 0xE000EDFC) -- CPU is running -- CPU_ReadMem(4 bytes @ 0xE000EDF0)
 -- CPU_WriteMem(4 bytes @ 0xE0002000) -- CPU_ReadMem(4 bytes @ 0xE000EDFC) -- CPU_ReadMem(4 bytes @ 0xE0001000) (0024ms, 0621ms total)
T240C 000:968 JLINK_Halt()  returns 0x00 (0000ms, 0621ms total)
T240C 000:968 JLINK_IsHalted() -- CPU_ReadMem(4 bytes @ 0x00000004)  returns TRUE (0001ms, 0622ms total)
T240C 000:969 JLINK_ReadMemU32(0xE000EDF0, 0x0001 Items, ...) -- CPU_ReadMem(4 bytes @ 0xE000EDF0) - Data: 03 00 03 00  returns 0x01 (0000ms, 0621ms total)
T240C 000:969 JLINK_WriteU32(0xE000EDF0, 0xA05F0003) -- CPU_WriteMem(4 bytes @ 0xE000EDF0)  returns 0x00 (0001ms, 0622ms total)
T240C 000:970 JLINK_WriteU32(0xE000EDFC, 0x01000000) -- CPU_WriteMem(4 bytes @ 0xE000EDFC)  returns 0x00 (0001ms, 0623ms total)
T240C 000:980 JLINK_GetHWStatus(...)  returns 0x00 (0001ms, 0624ms total)
T240C 000:989 JLINK_GetNumBPUnits(Type = 0xFFFFFF00)  returns 0x06 (0000ms, 0624ms total)
T240C 000:989 JLINK_GetNumBPUnits(Type = 0xF0)  returns 0x2000 (0000ms, 0624ms total)
T240C 000:989 JLINK_GetNumWPUnits()  returns 0x04 (0000ms, 0624ms total)
T240C 000:994 JLINK_GetSpeed()  returns 0x7D0 (0001ms, 0625ms total)
T240C 000:999 JLINK_ReadMemU32(0xE000E004, 0x0001 Items, ...) -- CPU_ReadMem(4 bytes @ 0xE000E004) - Data: 01 00 00 00  returns 0x01 (0001ms, 0626ms total)
T240C 001:000 JLINK_ReadMemU32(0xE000E004, 0x0001 Items, ...) -- CPU_ReadMem(4 bytes @ 0xE000E004) - Data: 01 00 00 00  returns 0x01 (0001ms, 0627ms total)
T240C 001:001 JLINK_WriteMem(0xE0001000, 0x001C Bytes, ...) - Data: 01 00 00 00 00 00 00 00 00 00 00 00 00 00 00 00 ... -- CPU_WriteMem(28 bytes @ 0xE0001000)  returns 0x1C (0002ms, 0629ms total)
T240C 001:003 JLINK_ReadMem (0xE0001000, 0x001C Bytes, ...) -- CPU_ReadMem(28 bytes @ 0xE0001000) - Data: 01 00 00 40 00 00 00 00 00 00 00 00 00 00 00 00 ...  returns 0x00 (0001ms, 0630ms total)
T240C 001:004 JLINK_Halt()  returns 0x00 (0000ms, 0630ms total)
T240C 001:004 JLINK_IsHalted() -- CPU_ReadMem(4 bytes @ 0x00000004)  returns TRUE (0000ms, 0630ms total)
T240C 001:010 JLINK_WriteMem(0x20000000, 0x0164 Bytes, ...) - Data: 00 BE 0A E0 0D 78 2D 06 68 40 08 24 40 00 00 D3 ... -- CPU_WriteMem(356 bytes @ 0x20000000)  returns 0x164 (0005ms, 0635ms total)
T240C 001:015 JLINK_WriteReg(R0, 0x08000000)  returns 0x00 (0000ms, 0635ms total)
T240C 001:015 JLINK_WriteReg(R1, 0x044AA200)  returns 0x00 (0000ms, 0635ms total)
T240C 001:015 JLINK_WriteReg(R2, 0x00000001)  returns 0x00 (0000ms, 0635ms total)
T240C 001:015 JLINK_WriteReg(R3, 0x00000000)  returns 0x00 (0000ms, 0635ms total)
T240C 001:015 JLINK_WriteReg(R4, 0x00000000)  returns 0x00 (0000ms, 0635ms total)
T240C 001:015 JLINK_WriteReg(R5, 0x00000000)  returns 0x00 (0000ms, 0635ms total)
T240C 001:015 JLINK_WriteReg(R6, 0x00000000)  returns 0x00 (0000ms, 0635ms total)
T240C 001:015 JLINK_WriteReg(R7, 0x00000000)  returns 0x00 (0000ms, 0635ms total)
T240C 001:015 JLINK_WriteReg(R8, 0x00000000)  returns 0x00 (0000ms, 0635ms total)
T240C 001:015 JLINK_WriteReg(R9, 0x20000160)  returns 0x00 (0000ms, 0635ms total)
T240C 001:015 JLINK_WriteReg(R10, 0x00000000)  returns 0x00 (0000ms, 0635ms total)
T240C 001:015 JLINK_WriteReg(R11, 0x00000000)  returns 0x00 (0000ms, 0635ms total)
T240C 001:015 JLINK_WriteReg(R12, 0x00000000)  returns 0x00 (0000ms, 0635ms total)
T240C 001:015 JLINK_WriteReg(R13 (SP), 0x20000800)  returns 0x00 (0000ms, 0635ms total)
T240C 001:015 JLINK_WriteReg(R14, 0x20000001)  returns 0x00 (0000ms, 0635ms total)
T240C 001:015 JLINK_WriteReg(R15 (PC), 0x20000038)  returns 0x00 (0000ms, 0635ms total)
T240C 001:015 JLINK_WriteReg(XPSR, 0x01000000)  returns 0x00 (0000ms, 0635ms total)
T240C 001:015 JLINK_WriteReg(MSP, 0x20000800)  returns 0x00 (0000ms, 0635ms total)
T240C 001:015 JLINK_WriteReg(PSP, 0x20000800)  returns 0x00 (0000ms, 0635ms total)
T240C 001:015 JLINK_WriteReg(CFBP, 0x00000000)  returns 0x00 (0000ms, 0635ms total)
T240C 001:015 JLINK_SetBPEx(Addr = 0x20000000, Type = 0xFFFFFFF2) -- CPU_ReadMem(2 bytes @ 0x20000000)  returns 0x00000001 (0001ms, 0636ms total)
T240C 001:016 JLINK_Go() -- CPU_WriteMem(2 bytes @ 0x20000000) -- CPU_WriteMem(4 bytes @ 0xE0002008) -- CPU_WriteMem(4 bytes @ 0xE000200C) -- CPU_WriteMem(4 bytes @ 0xE0002010) -- CPU_WriteMem(4 bytes @ 0xE0002014) -- CPU_WriteMem(4 bytes @ 0xE0002018) -- CPU_WriteMem(4 bytes @ 0xE000201C) -- CPU_WriteMem(4 bytes @ 0xE0001004) (0010ms, 0646ms total)
T240C 001:026 JLINK_IsHalted() -- CPU_ReadMem(2 bytes @ 0x20000000)  returns TRUE (0005ms, 0651ms total)
T240C 001:031 JLINK_ReadReg(R15 (PC))  returns 0x20000000 (0000ms, 0646ms total)
T240C 001:031 JLINK_ClrBPEx(BPHandle = 0x00000001)  returns 0x00 (0000ms, 0646ms total)
T240C 001:031 JLINK_ReadReg(R0)  returns 0x00000000 (0000ms, 0646ms total)
T240C 001:032 JLINK_WriteReg(R0, 0x08000000)  returns 0x00 (0000ms, 0646ms total)
T240C 001:032 JLINK_WriteReg(R1, 0x044AA200)  returns 0x00 (0000ms, 0646ms total)
T240C 001:032 JLINK_WriteReg(R2, 0x00000001)  returns 0x00 (0000ms, 0646ms total)
T240C 001:032 JLINK_WriteReg(R3, 0x00000000)  returns 0x00 (0000ms, 0646ms total)
T240C 001:032 JLINK_WriteReg(R4, 0x00000000)  returns 0x00 (0000ms, 0646ms total)
T240C 001:032 JLINK_WriteReg(R5, 0x00000000)  returns 0x00 (0001ms, 0647ms total)
T240C 001:033 JLINK_WriteReg(R6, 0x00000000)  returns 0x00 (0000ms, 0647ms total)
T240C 001:033 JLINK_WriteReg(R7, 0x00000000)  returns 0x00 (0000ms, 0647ms total)
T240C 001:033 JLINK_WriteReg(R8, 0x00000000)  returns 0x00 (0000ms, 0647ms total)
T240C 001:033 JLINK_WriteReg(R9, 0x20000160)  returns 0x00 (0000ms, 0647ms total)
T240C 001:033 JLINK_WriteReg(R10, 0x00000000)  returns 0x00 (0000ms, 0647ms total)
T240C 001:033 JLINK_WriteReg(R11, 0x00000000)  returns 0x00 (0000ms, 0647ms total)
T240C 001:033 JLINK_WriteReg(R12, 0x00000000)  returns 0x00 (0000ms, 0647ms total)
T240C 001:033 JLINK_WriteReg(R13 (SP), 0x20000800)  returns 0x00 (0000ms, 0647ms total)
T240C 001:033 JLINK_WriteReg(R14, 0x20000001)  returns 0x00 (0000ms, 0647ms total)
T240C 001:033 JLINK_WriteReg(R15 (PC), 0x2000007C)  returns 0x00 (0000ms, 0647ms total)
T240C 001:033 JLINK_WriteReg(XPSR, 0x01000000)  returns 0x00 (0000ms, 0647ms total)
T240C 001:033 JLINK_WriteReg(MSP, 0x20000800)  returns 0x00 (0000ms, 0647ms total)
T240C 001:033 JLINK_WriteReg(PSP, 0x20000800)  returns 0x00 (0000ms, 0647ms total)
T240C 001:033 JLINK_WriteReg(CFBP, 0x00000000)  returns 0x00 (0000ms, 0647ms total)
T240C 001:033 JLINK_SetBPEx(Addr = 0x20000000, Type = 0xFFFFFFF2)  returns 0x00000002 (0000ms, 0647ms total)
T240C 001:033 JLINK_Go() (0002ms, 0649ms total)
T240C 001:035 JLINK_IsHalted()  returns FALSE (0001ms, 0650ms total)
T240C 001:165 JLINK_IsHalted() -- CPU_ReadMem(2 bytes @ 0x20000000)  returns TRUE (0005ms, 0654ms total)
T240C 001:170 JLINK_ReadReg(R15 (PC))  returns 0x20000000 (0000ms, 0649ms total)
T240C 001:170 JLINK_ClrBPEx(BPHandle = 0x00000002)  returns 0x00 (0000ms, 0649ms total)
T240C 001:170 JLINK_ReadReg(R0)  returns 0x00000000 (0000ms, 0649ms total)
T240C 001:221 JLINK_WriteReg(R0, 0x00000001)  returns 0x00 (0000ms, 0649ms total)
T240C 001:221 JLINK_WriteReg(R1, 0x044AA200)  returns 0x00 (0000ms, 0649ms total)
T240C 001:221 JLINK_WriteReg(R2, 0x00000001)  returns 0x00 (0000ms, 0649ms total)
T240C 001:221 JLINK_WriteReg(R3, 0x00000000)  returns 0x00 (0000ms, 0649ms total)
T240C 001:221 JLINK_WriteReg(R4, 0x00000000)  returns 0x00 (0000ms, 0649ms total)
T240C 001:221 JLINK_WriteReg(R5, 0x00000000)  returns 0x00 (0000ms, 0649ms total)
T240C 001:221 JLINK_WriteReg(R6, 0x00000000)  returns 0x00 (0000ms, 0649ms total)
T240C 001:221 JLINK_WriteReg(R7, 0x00000000)  returns 0x00 (0000ms, 0649ms total)
T240C 001:221 JLINK_WriteReg(R8, 0x00000000)  returns 0x00 (0000ms, 0649ms total)
T240C 001:221 JLINK_WriteReg(R9, 0x20000160)  returns 0x00 (0000ms, 0649ms total)
T240C 001:221 JLINK_WriteReg(R10, 0x00000000)  returns 0x00 (0000ms, 0649ms total)
T240C 001:221 JLINK_WriteReg(R11, 0x00000000)  returns 0x00 (0001ms, 0650ms total)
T240C 001:222 JLINK_WriteReg(R12, 0x00000000)  returns 0x00 (0000ms, 0650ms total)
T240C 001:222 JLINK_WriteReg(R13 (SP), 0x20000800)  returns 0x00 (0000ms, 0650ms total)
T240C 001:222 JLINK_WriteReg(R14, 0x20000001)  returns 0x00 (0000ms, 0650ms total)
T240C 001:222 JLINK_WriteReg(R15 (PC), 0x2000006A)  returns 0x00 (0000ms, 0650ms total)
T240C 001:222 JLINK_WriteReg(XPSR, 0x01000000)  returns 0x00 (0000ms, 0650ms total)
T240C 001:222 JLINK_WriteReg(MSP, 0x20000800)  returns 0x00 (0000ms, 0650ms total)
T240C 001:222 JLINK_WriteReg(PSP, 0x20000800)  returns 0x00 (0000ms, 0650ms total)
T240C 001:222 JLINK_WriteReg(CFBP, 0x00000000)  returns 0x00 (0000ms, 0650ms total)
T240C 001:222 JLINK_SetBPEx(Addr = 0x20000000, Type = 0xFFFFFFF2)  returns 0x00000003 (0000ms, 0650ms total)
T240C 001:222 JLINK_Go() (0002ms, 0652ms total)
T240C 001:224 JLINK_IsHalted() -- CPU_ReadMem(2 bytes @ 0x20000000)  returns TRUE (0005ms, 0657ms total)
T240C 001:229 JLINK_ReadReg(R15 (PC))  returns 0x20000000 (0000ms, 0652ms total)
T240C 001:229 JLINK_ClrBPEx(BPHandle = 0x00000003)  returns 0x00 (0000ms, 0652ms total)
T240C 001:229 JLINK_ReadReg(R0)  returns 0x00000000 (0000ms, 0652ms total)
T240C 001:235 JLINK_WriteMem(0x20000000, 0x0164 Bytes, ...) - Data: 00 BE 0A E0 0D 78 2D 06 68 40 08 24 40 00 00 D3 ... -- CPU_WriteMem(356 bytes @ 0x20000000)  returns 0x164 (0005ms, 0657ms total)
T240C 001:240 JLINK_WriteReg(R0, 0x08000000)  returns 0x00 (0000ms, 0657ms total)
T240C 001:240 JLINK_WriteReg(R1, 0x044AA200)  returns 0x00 (0000ms, 0657ms total)
T240C 001:240 JLINK_WriteReg(R2, 0x00000002)  returns 0x00 (0000ms, 0657ms total)
T240C 001:240 JLINK_WriteReg(R3, 0x00000000)  returns 0x00 (0000ms, 0657ms total)
T240C 001:240 JLINK_WriteReg(R4, 0x00000000)  returns 0x00 (0000ms, 0657ms total)
T240C 001:240 JLINK_WriteReg(R5, 0x00000000)  returns 0x00 (0000ms, 0657ms total)
T240C 001:240 JLINK_WriteReg(R6, 0x00000000)  returns 0x00 (0000ms, 0657ms total)
T240C 001:240 JLINK_WriteReg(R7, 0x00000000)  returns 0x00 (0000ms, 0657ms total)
T240C 001:240 JLINK_WriteReg(R8, 0x00000000)  returns 0x00 (0000ms, 0657ms total)
T240C 001:240 JLINK_WriteReg(R9, 0x20000160)  returns 0x00 (0000ms, 0657ms total)
T240C 001:240 JLINK_WriteReg(R10, 0x00000000)  returns 0x00 (0000ms, 0657ms total)
T240C 001:240 JLINK_WriteReg(R11, 0x00000000)  returns 0x00 (0000ms, 0657ms total)
T240C 001:240 JLINK_WriteReg(R12, 0x00000000)  returns 0x00 (0000ms, 0657ms total)
T240C 001:240 JLINK_WriteReg(R13 (SP), 0x20000800)  returns 0x00 (0000ms, 0657ms total)
T240C 001:240 JLINK_WriteReg(R14, 0x20000001)  returns 0x00 (0000ms, 0657ms total)
T240C 001:240 JLINK_WriteReg(R15 (PC), 0x20000038)  returns 0x00 (0000ms, 0657ms total)
T240C 001:240 JLINK_WriteReg(XPSR, 0x01000000)  returns 0x00 (0000ms, 0657ms total)
T240C 001:240 JLINK_WriteReg(MSP, 0x20000800)  returns 0x00 (0000ms, 0657ms total)
T240C 001:240 JLINK_WriteReg(PSP, 0x20000800)  returns 0x00 (0000ms, 0657ms total)
T240C 001:240 JLINK_WriteReg(CFBP, 0x00000000)  returns 0x00 (0000ms, 0657ms total)
T240C 001:240 JLINK_SetBPEx(Addr = 0x20000000, Type = 0xFFFFFFF2) -- CPU_ReadMem(2 bytes @ 0x20000000)  returns 0x00000004 (0001ms, 0658ms total)
T240C 001:241 JLINK_Go() -- CPU_WriteMem(2 bytes @ 0x20000000) (0003ms, 0661ms total)
T240C 001:244 JLINK_IsHalted() -- CPU_ReadMem(2 bytes @ 0x20000000)  returns TRUE (0005ms, 0666ms total)
T240C 001:249 JLINK_ReadReg(R15 (PC))  returns 0x20000000 (0000ms, 0661ms total)
T240C 001:249 JLINK_ClrBPEx(BPHandle = 0x00000004)  returns 0x00 (0000ms, 0661ms total)
T240C 001:249 JLINK_ReadReg(R0)  returns 0x00000000 (0000ms, 0661ms total)
T240C 001:249 JLINK_WriteMem(0x20000164, 0x0400 Bytes, ...) - Data: 08 3D 00 20 B1 55 00 08 79 05 00 08 7B 05 00 08 ... -- CPU_WriteMem(1024 bytes @ 0x20000164)  returns 0x400 (0012ms, 0673ms total)
T240C 001:261 JLINK_WriteReg(R0, 0x08000000)  returns 0x00 (0000ms, 0673ms total)
T240C 001:261 JLINK_WriteReg(R1, 0x00000400)  returns 0x00 (0000ms, 0673ms total)
T240C 001:261 JLINK_WriteReg(R2, 0x20000164)  returns 0x00 (0000ms, 0673ms total)
T240C 001:261 JLINK_WriteReg(R3, 0x00000000)  returns 0x00 (0000ms, 0673ms total)
T240C 001:261 JLINK_WriteReg(R4, 0x00000000)  returns 0x00 (0000ms, 0673ms total)
T240C 001:261 JLINK_WriteReg(R5, 0x00000000)  returns 0x00 (0000ms, 0673ms total)
T240C 001:261 JLINK_WriteReg(R6, 0x00000000)  returns 0x00 (0000ms, 0673ms total)
T240C 001:261 JLINK_WriteReg(R7, 0x00000000)  returns 0x00 (0000ms, 0673ms total)
T240C 001:261 JLINK_WriteReg(R8, 0x00000000)  returns 0x00 (0000ms, 0673ms total)
T240C 001:261 JLINK_WriteReg(R9, 0x20000160)  returns 0x00 (0000ms, 0673ms total)
T240C 001:261 JLINK_WriteReg(R10, 0x00000000)  returns 0x00 (0000ms, 0673ms total)
T240C 001:261 JLINK_WriteReg(R11, 0x00000000)  returns 0x00 (0000ms, 0673ms total)
T240C 001:261 JLINK_WriteReg(R12, 0x00000000)  returns 0x00 (0000ms, 0673ms total)
T240C 001:261 JLINK_WriteReg(R13 (SP), 0x20000800)  returns 0x00 (0000ms, 0673ms total)
T240C 001:261 JLINK_WriteReg(R14, 0x20000001)  returns 0x00 (0000ms, 0673ms total)
T240C 001:261 JLINK_WriteReg(R15 (PC), 0x200000F4)  returns 0x00 (0000ms, 0673ms total)
T240C 001:261 JLINK_WriteReg(XPSR, 0x01000000)  returns 0x00 (0000ms, 0673ms total)
T240C 001:261 JLINK_WriteReg(MSP, 0x20000800)  returns 0x00 (0000ms, 0673ms total)
T240C 001:261 JLINK_WriteReg(PSP, 0x20000800)  returns 0x00 (0000ms, 0673ms total)
T240C 001:261 JLINK_WriteReg(CFBP, 0x00000000)  returns 0x00 (0000ms, 0673ms total)
T240C 001:261 JLINK_SetBPEx(Addr = 0x20000000, Type = 0xFFFFFFF2)  returns 0x00000005 (0000ms, 0673ms total)
T240C 001:261 JLINK_Go() (0002ms, 0675ms total)
T240C 001:263 JLINK_IsHalted()  returns FALSE (0001ms, 0676ms total)
T240C 001:342 JLINK_IsHalted() -- CPU_ReadMem(2 bytes @ 0x20000000)  returns TRUE (0004ms, 0679ms total)
T240C 001:346 JLINK_ReadReg(R15 (PC))  returns 0x20000000 (0000ms, 0675ms total)
T240C 001:346 JLINK_ClrBPEx(BPHandle = 0x00000005)  returns 0x00 (0000ms, 0675ms total)
T240C 001:346 JLINK_ReadReg(R0)  returns 0x00000000 (0000ms, 0675ms total)
T240C 001:347 JLINK_WriteMem(0x20000164, 0x0400 Bytes, ...) - Data: 08 39 02 A8 03 F0 92 FC 06 46 AC 42 01 D8 64 1C ... -- CPU_WriteMem(1024 bytes @ 0x20000164)  returns 0x400 (0011ms, 0686ms total)
T240C 001:358 JLINK_WriteReg(R0, 0x08000400)  returns 0x00 (0000ms, 0686ms total)
T240C 001:358 JLINK_WriteReg(R1, 0x00000400)  returns 0x00 (0000ms, 0686ms total)
T240C 001:358 JLINK_WriteReg(R2, 0x20000164)  returns 0x00 (0000ms, 0686ms total)
T240C 001:358 JLINK_WriteReg(R3, 0x00000000)  returns 0x00 (0000ms, 0686ms total)
T240C 001:358 JLINK_WriteReg(R4, 0x00000000)  returns 0x00 (0000ms, 0686ms total)
T240C 001:358 JLINK_WriteReg(R5, 0x00000000)  returns 0x00 (0000ms, 0686ms total)
T240C 001:358 JLINK_WriteReg(R6, 0x00000000)  returns 0x00 (0001ms, 0687ms total)
T240C 001:359 JLINK_WriteReg(R7, 0x00000000)  returns 0x00 (0000ms, 0687ms total)
T240C 001:359 JLINK_WriteReg(R8, 0x00000000)  returns 0x00 (0000ms, 0687ms total)
T240C 001:359 JLINK_WriteReg(R9, 0x20000160)  returns 0x00 (0000ms, 0687ms total)
T240C 001:359 JLINK_WriteReg(R10, 0x00000000)  returns 0x00 (0000ms, 0687ms total)
T240C 001:359 JLINK_WriteReg(R11, 0x00000000)  returns 0x00 (0000ms, 0687ms total)
T240C 001:359 JLINK_WriteReg(R12, 0x00000000)  returns 0x00 (0000ms, 0687ms total)
T240C 001:359 JLINK_WriteReg(R13 (SP), 0x20000800)  returns 0x00 (0000ms, 0687ms total)
T240C 001:359 JLINK_WriteReg(R14, 0x20000001)  returns 0x00 (0000ms, 0687ms total)
T240C 001:359 JLINK_WriteReg(R15 (PC), 0x200000F4)  returns 0x00 (0000ms, 0687ms total)
T240C 001:359 JLINK_WriteReg(XPSR, 0x01000000)  returns 0x00 (0000ms, 0687ms total)
T240C 001:359 JLINK_WriteReg(MSP, 0x20000800)  returns 0x00 (0000ms, 0687ms total)
T240C 001:359 JLINK_WriteReg(PSP, 0x20000800)  returns 0x00 (0000ms, 0687ms total)
T240C 001:359 JLINK_WriteReg(CFBP, 0x00000000)  returns 0x00 (0000ms, 0687ms total)
T240C 001:359 JLINK_SetBPEx(Addr = 0x20000000, Type = 0xFFFFFFF2)  returns 0x00000006 (0000ms, 0687ms total)
T240C 001:359 JLINK_Go() (0002ms, 0689ms total)
T240C 001:361 JLINK_IsHalted()  returns FALSE (0001ms, 0690ms total)
T240C 001:378 JLINK_IsHalted()  returns FALSE (0000ms, 0689ms total)
T240C 001:407 JLINK_IsHalted() -- CPU_ReadMem(2 bytes @ 0x20000000)  returns TRUE (0004ms, 0693ms total)
T240C 001:411 JLINK_ReadReg(R15 (PC))  returns 0x20000000 (0000ms, 0689ms total)
T240C 001:411 JLINK_ClrBPEx(BPHandle = 0x00000006)  returns 0x00 (0000ms, 0689ms total)
T240C 001:411 JLINK_ReadReg(R0)  returns 0x00000000 (0000ms, 0689ms total)
T240C 001:412 JLINK_WriteMem(0x20000164, 0x0400 Bytes, ...) - Data: 04 F0 ED FF C6 B2 06 F0 1F 00 05 28 01 D0 00 20 ... -- CPU_WriteMem(1024 bytes @ 0x20000164)  returns 0x400 (0011ms, 0700ms total)
T240C 001:423 JLINK_WriteReg(R0, 0x08000800)  returns 0x00 (0000ms, 0700ms total)
T240C 001:423 JLINK_WriteReg(R1, 0x00000400)  returns 0x00 (0000ms, 0700ms total)
T240C 001:423 JLINK_WriteReg(R2, 0x20000164)  returns 0x00 (0000ms, 0700ms total)
T240C 001:423 JLINK_WriteReg(R3, 0x00000000)  returns 0x00 (0000ms, 0700ms total)
T240C 001:423 JLINK_WriteReg(R4, 0x00000000)  returns 0x00 (0000ms, 0700ms total)
T240C 001:423 JLINK_WriteReg(R5, 0x00000000)  returns 0x00 (0000ms, 0700ms total)
T240C 001:423 JLINK_WriteReg(R6, 0x00000000)  returns 0x00 (0000ms, 0700ms total)
T240C 001:423 JLINK_WriteReg(R7, 0x00000000)  returns 0x00 (0000ms, 0700ms total)
T240C 001:423 JLINK_WriteReg(R8, 0x00000000)  returns 0x00 (0000ms, 0700ms total)
T240C 001:423 JLINK_WriteReg(R9, 0x20000160)  returns 0x00 (0000ms, 0700ms total)
T240C 001:423 JLINK_WriteReg(R10, 0x00000000)  returns 0x00 (0000ms, 0700ms total)
T240C 001:423 JLINK_WriteReg(R11, 0x00000000)  returns 0x00 (0000ms, 0700ms total)
T240C 001:423 JLINK_WriteReg(R12, 0x00000000)  returns 0x00 (0000ms, 0700ms total)
T240C 001:423 JLINK_WriteReg(R13 (SP), 0x20000800)  returns 0x00 (0000ms, 0700ms total)
T240C 001:423 JLINK_WriteReg(R14, 0x20000001)  returns 0x00 (0000ms, 0700ms total)
T240C 001:423 JLINK_WriteReg(R15 (PC), 0x200000F4)  returns 0x00 (0000ms, 0700ms total)
T240C 001:423 JLINK_WriteReg(XPSR, 0x01000000)  returns 0x00 (0000ms, 0700ms total)
T240C 001:423 JLINK_WriteReg(MSP, 0x20000800)  returns 0x00 (0000ms, 0700ms total)
T240C 001:423 JLINK_WriteReg(PSP, 0x20000800)  returns 0x00 (0000ms, 0700ms total)
T240C 001:423 JLINK_WriteReg(CFBP, 0x00000000)  returns 0x00 (0000ms, 0700ms total)
T240C 001:423 JLINK_SetBPEx(Addr = 0x20000000, Type = 0xFFFFFFF2)  returns 0x00000007 (0000ms, 0700ms total)
T240C 001:423 JLINK_Go() (0003ms, 0703ms total)
T240C 001:426 JLINK_IsHalted()  returns FALSE (0001ms, 0704ms total)
T240C 001:429 JLINK_IsHalted()  returns FALSE (0000ms, 0703ms total)
T240C 001:431 JLINK_IsHalted()  returns FALSE (0000ms, 0703ms total)
T240C 001:433 JLINK_IsHalted()  returns FALSE (0000ms, 0703ms total)
T240C 001:435 JLINK_IsHalted()  returns FALSE (0000ms, 0703ms total)
T240C 001:437 JLINK_IsHalted()  returns FALSE (0000ms, 0703ms total)
T240C 001:439 JLINK_IsHalted()  returns FALSE (0000ms, 0703ms total)
T240C 001:441 JLINK_IsHalted()  returns FALSE (0000ms, 0703ms total)
T240C 001:446 JLINK_IsHalted()  returns FALSE (0000ms, 0703ms total)
T240C 001:448 JLINK_IsHalted()  returns FALSE (0000ms, 0703ms total)
T240C 001:450 JLINK_IsHalted()  returns FALSE (0000ms, 0703ms total)
T240C 001:452 JLINK_IsHalted()  returns FALSE (0000ms, 0703ms total)
T240C 001:454 JLINK_IsHalted()  returns FALSE (0000ms, 0703ms total)
T240C 001:469 JLINK_IsHalted() -- CPU_ReadMem(2 bytes @ 0x20000000)  returns TRUE (0004ms, 0707ms total)
T240C 001:473 JLINK_ReadReg(R15 (PC))  returns 0x20000000 (0000ms, 0703ms total)
T240C 001:473 JLINK_ClrBPEx(BPHandle = 0x00000007)  returns 0x00 (0000ms, 0703ms total)
T240C 001:473 JLINK_ReadReg(R0)  returns 0x00000000 (0000ms, 0703ms total)
T240C 001:474 JLINK_WriteMem(0x20000164, 0x0400 Bytes, ...) - Data: 04 00 00 B3 00 21 8D 20 FF F7 05 FE 00 28 4D D1 ... -- CPU_WriteMem(1024 bytes @ 0x20000164)  returns 0x400 (0011ms, 0714ms total)
T240C 001:485 JLINK_WriteReg(R0, 0x08000C00)  returns 0x00 (0000ms, 0714ms total)
T240C 001:485 JLINK_WriteReg(R1, 0x00000400)  returns 0x00 (0000ms, 0714ms total)
T240C 001:486 JLINK_WriteReg(R2, 0x20000164)  returns 0x00 (0000ms, 0715ms total)
T240C 001:486 JLINK_WriteReg(R3, 0x00000000)  returns 0x00 (0000ms, 0715ms total)
T240C 001:486 JLINK_WriteReg(R4, 0x00000000)  returns 0x00 (0000ms, 0715ms total)
T240C 001:486 JLINK_WriteReg(R5, 0x00000000)  returns 0x00 (0000ms, 0715ms total)
T240C 001:486 JLINK_WriteReg(R6, 0x00000000)  returns 0x00 (0000ms, 0715ms total)
T240C 001:486 JLINK_WriteReg(R7, 0x00000000)  returns 0x00 (0000ms, 0715ms total)
T240C 001:486 JLINK_WriteReg(R8, 0x00000000)  returns 0x00 (0000ms, 0715ms total)
T240C 001:486 JLINK_WriteReg(R9, 0x20000160)  returns 0x00 (0000ms, 0715ms total)
T240C 001:486 JLINK_WriteReg(R10, 0x00000000)  returns 0x00 (0000ms, 0715ms total)
T240C 001:486 JLINK_WriteReg(R11, 0x00000000)  returns 0x00 (0000ms, 0715ms total)
T240C 001:486 JLINK_WriteReg(R12, 0x00000000)  returns 0x00 (0000ms, 0715ms total)
T240C 001:486 JLINK_WriteReg(R13 (SP), 0x20000800)  returns 0x00 (0000ms, 0715ms total)
T240C 001:486 JLINK_WriteReg(R14, 0x20000001)  returns 0x00 (0000ms, 0715ms total)
T240C 001:486 JLINK_WriteReg(R15 (PC), 0x200000F4)  returns 0x00 (0000ms, 0715ms total)
T240C 001:486 JLINK_WriteReg(XPSR, 0x01000000)  returns 0x00 (0000ms, 0715ms total)
T240C 001:486 JLINK_WriteReg(MSP, 0x20000800)  returns 0x00 (0000ms, 0715ms total)
T240C 001:486 JLINK_WriteReg(PSP, 0x20000800)  returns 0x00 (0000ms, 0715ms total)
T240C 001:486 JLINK_WriteReg(CFBP, 0x00000000)  returns 0x00 (0000ms, 0715ms total)
T240C 001:486 JLINK_SetBPEx(Addr = 0x20000000, Type = 0xFFFFFFF2)  returns 0x00000008 (0000ms, 0715ms total)
T240C 001:486 JLINK_Go() (0002ms, 0717ms total)
T240C 001:488 JLINK_IsHalted()  returns FALSE (0001ms, 0718ms total)
T240C 001:518 JLINK_IsHalted()  returns FALSE (0000ms, 0717ms total)
T240C 001:520 JLINK_IsHalted() -- CPU_ReadMem(2 bytes @ 0x20000000)  returns TRUE (0004ms, 0721ms total)
T240C 001:524 JLINK_ReadReg(R15 (PC))  returns 0x20000000 (0000ms, 0717ms total)
T240C 001:524 JLINK_ClrBPEx(BPHandle = 0x00000008)  returns 0x00 (0000ms, 0717ms total)
T240C 001:524 JLINK_ReadReg(R0)  returns 0x00000000 (0000ms, 0717ms total)
T240C 001:525 JLINK_WriteMem(0x20000164, 0x0400 Bytes, ...) - Data: 70 B5 04 46 0D 46 00 BF C6 49 51 F8 24 00 40 21 ... -- CPU_WriteMem(1024 bytes @ 0x20000164)  returns 0x400 (0011ms, 0728ms total)
T240C 001:536 JLINK_WriteReg(R0, 0x08001000)  returns 0x00 (0000ms, 0728ms total)
T240C 001:536 JLINK_WriteReg(R1, 0x00000400)  returns 0x00 (0000ms, 0728ms total)
T240C 001:536 JLINK_WriteReg(R2, 0x20000164)  returns 0x00 (0000ms, 0728ms total)
T240C 001:536 JLINK_WriteReg(R3, 0x00000000)  returns 0x00 (0000ms, 0728ms total)
T240C 001:536 JLINK_WriteReg(R4, 0x00000000)  returns 0x00 (0000ms, 0728ms total)
T240C 001:536 JLINK_WriteReg(R5, 0x00000000)  returns 0x00 (0000ms, 0728ms total)
T240C 001:536 JLINK_WriteReg(R6, 0x00000000)  returns 0x00 (0000ms, 0728ms total)
T240C 001:536 JLINK_WriteReg(R7, 0x00000000)  returns 0x00 (0000ms, 0728ms total)
T240C 001:536 JLINK_WriteReg(R8, 0x00000000)  returns 0x00 (0000ms, 0728ms total)
T240C 001:536 JLINK_WriteReg(R9, 0x20000160)  returns 0x00 (0000ms, 0728ms total)
T240C 001:536 JLINK_WriteReg(R10, 0x00000000)  returns 0x00 (0000ms, 0728ms total)
T240C 001:536 JLINK_WriteReg(R11, 0x00000000)  returns 0x00 (0001ms, 0729ms total)
T240C 001:537 JLINK_WriteReg(R12, 0x00000000)  returns 0x00 (0000ms, 0729ms total)
T240C 001:537 JLINK_WriteReg(R13 (SP), 0x20000800)  returns 0x00 (0000ms, 0729ms total)
T240C 001:537 JLINK_WriteReg(R14, 0x20000001)  returns 0x00 (0000ms, 0729ms total)
T240C 001:537 JLINK_WriteReg(R15 (PC), 0x200000F4)  returns 0x00 (0000ms, 0729ms total)
T240C 001:537 JLINK_WriteReg(XPSR, 0x01000000)  returns 0x00 (0000ms, 0729ms total)
T240C 001:537 JLINK_WriteReg(MSP, 0x20000800)  returns 0x00 (0000ms, 0729ms total)
T240C 001:537 JLINK_WriteReg(PSP, 0x20000800)  returns 0x00 (0000ms, 0729ms total)
T240C 001:537 JLINK_WriteReg(CFBP, 0x00000000)  returns 0x00 (0000ms, 0729ms total)
T240C 001:537 JLINK_SetBPEx(Addr = 0x20000000, Type = 0xFFFFFFF2)  returns 0x00000009 (0000ms, 0729ms total)
T240C 001:537 JLINK_Go() (0002ms, 0731ms total)
T240C 001:539 JLINK_IsHalted()  returns FALSE (0001ms, 0732ms total)
T240C 001:542 JLINK_IsHalted()  returns FALSE (0000ms, 0731ms total)
T240C 001:544 JLINK_IsHalted()  returns FALSE (0000ms, 0731ms total)
T240C 001:546 JLINK_IsHalted()  returns FALSE (0000ms, 0731ms total)
T240C 001:548 JLINK_IsHalted()  returns FALSE (0000ms, 0731ms total)
T240C 001:550 JLINK_IsHalted()  returns FALSE (0000ms, 0731ms total)
T240C 001:552 JLINK_IsHalted()  returns FALSE (0000ms, 0731ms total)
T240C 001:554 JLINK_IsHalted()  returns FALSE (0000ms, 0731ms total)
T240C 001:556 JLINK_IsHalted()  returns FALSE (0000ms, 0731ms total)
T240C 001:558 JLINK_IsHalted()  returns FALSE (0000ms, 0731ms total)
T240C 001:560 JLINK_IsHalted()  returns FALSE (0000ms, 0731ms total)
T240C 001:562 JLINK_IsHalted()  returns FALSE (0000ms, 0731ms total)
T240C 001:577 JLINK_IsHalted() -- CPU_ReadMem(2 bytes @ 0x20000000)  returns TRUE (0004ms, 0735ms total)
T240C 001:581 JLINK_ReadReg(R15 (PC))  returns 0x20000000 (0000ms, 0731ms total)
T240C 001:581 JLINK_ClrBPEx(BPHandle = 0x00000009)  returns 0x00 (0000ms, 0731ms total)
T240C 001:581 JLINK_ReadReg(R0)  returns 0x00000000 (0000ms, 0731ms total)
T240C 001:582 JLINK_WriteMem(0x20000164, 0x0400 Bytes, ...) - Data: 1A 61 00 BF 4F F0 E0 22 10 69 00 F0 01 02 1A B1 ... -- CPU_WriteMem(1024 bytes @ 0x20000164)  returns 0x400 (0011ms, 0742ms total)
T240C 001:593 JLINK_WriteReg(R0, 0x08001400)  returns 0x00 (0000ms, 0742ms total)
T240C 001:593 JLINK_WriteReg(R1, 0x00000400)  returns 0x00 (0000ms, 0742ms total)
T240C 001:593 JLINK_WriteReg(R2, 0x20000164)  returns 0x00 (0000ms, 0742ms total)
T240C 001:593 JLINK_WriteReg(R3, 0x00000000)  returns 0x00 (0000ms, 0742ms total)
T240C 001:593 JLINK_WriteReg(R4, 0x00000000)  returns 0x00 (0000ms, 0742ms total)
T240C 001:593 JLINK_WriteReg(R5, 0x00000000)  returns 0x00 (0000ms, 0742ms total)
T240C 001:593 JLINK_WriteReg(R6, 0x00000000)  returns 0x00 (0000ms, 0742ms total)
T240C 001:593 JLINK_WriteReg(R7, 0x00000000)  returns 0x00 (0001ms, 0743ms total)
T240C 001:594 JLINK_WriteReg(R8, 0x00000000)  returns 0x00 (0000ms, 0743ms total)
T240C 001:594 JLINK_WriteReg(R9, 0x20000160)  returns 0x00 (0000ms, 0743ms total)
T240C 001:594 JLINK_WriteReg(R10, 0x00000000)  returns 0x00 (0000ms, 0743ms total)
T240C 001:594 JLINK_WriteReg(R11, 0x00000000)  returns 0x00 (0000ms, 0743ms total)
T240C 001:594 JLINK_WriteReg(R12, 0x00000000)  returns 0x00 (0000ms, 0743ms total)
T240C 001:594 JLINK_WriteReg(R13 (SP), 0x20000800)  returns 0x00 (0000ms, 0743ms total)
T240C 001:594 JLINK_WriteReg(R14, 0x20000001)  returns 0x00 (0000ms, 0743ms total)
T240C 001:594 JLINK_WriteReg(R15 (PC), 0x200000F4)  returns 0x00 (0000ms, 0743ms total)
T240C 001:594 JLINK_WriteReg(XPSR, 0x01000000)  returns 0x00 (0000ms, 0743ms total)
T240C 001:594 JLINK_WriteReg(MSP, 0x20000800)  returns 0x00 (0000ms, 0743ms total)
T240C 001:594 JLINK_WriteReg(PSP, 0x20000800)  returns 0x00 (0000ms, 0743ms total)
T240C 001:594 JLINK_WriteReg(CFBP, 0x00000000)  returns 0x00 (0000ms, 0743ms total)
T240C 001:594 JLINK_SetBPEx(Addr = 0x20000000, Type = 0xFFFFFFF2)  returns 0x0000000A (0000ms, 0743ms total)
T240C 001:594 JLINK_Go() (0002ms, 0745ms total)
T240C 001:596 JLINK_IsHalted()  returns FALSE (0001ms, 0746ms total)
T240C 001:640 JLINK_IsHalted() -- CPU_ReadMem(2 bytes @ 0x20000000)  returns TRUE (0004ms, 0749ms total)
T240C 001:644 JLINK_ReadReg(R15 (PC))  returns 0x20000000 (0000ms, 0745ms total)
T240C 001:644 JLINK_ClrBPEx(BPHandle = 0x0000000A)  returns 0x00 (0000ms, 0745ms total)
T240C 001:644 JLINK_ReadReg(R0)  returns 0x00000000 (0000ms, 0745ms total)
T240C 001:645 JLINK_WriteMem(0x20000164, 0x0400 Bytes, ...) - Data: 10 B5 00 22 00 23 40 F6 6A 14 A1 42 00 D1 00 BF ... -- CPU_WriteMem(1024 bytes @ 0x20000164)  returns 0x400 (0011ms, 0756ms total)
T240C 001:656 JLINK_WriteReg(R0, 0x08001800)  returns 0x00 (0000ms, 0756ms total)
T240C 001:656 JLINK_WriteReg(R1, 0x00000400)  returns 0x00 (0000ms, 0756ms total)
T240C 001:656 JLINK_WriteReg(R2, 0x20000164)  returns 0x00 (0000ms, 0756ms total)
T240C 001:656 JLINK_WriteReg(R3, 0x00000000)  returns 0x00 (0000ms, 0756ms total)
T240C 001:656 JLINK_WriteReg(R4, 0x00000000)  returns 0x00 (0000ms, 0756ms total)
T240C 001:656 JLINK_WriteReg(R5, 0x00000000)  returns 0x00 (0000ms, 0756ms total)
T240C 001:656 JLINK_WriteReg(R6, 0x00000000)  returns 0x00 (0000ms, 0756ms total)
T240C 001:656 JLINK_WriteReg(R7, 0x00000000)  returns 0x00 (0000ms, 0756ms total)
T240C 001:656 JLINK_WriteReg(R8, 0x00000000)  returns 0x00 (0000ms, 0756ms total)
T240C 001:656 JLINK_WriteReg(R9, 0x20000160)  returns 0x00 (0000ms, 0756ms total)
T240C 001:656 JLINK_WriteReg(R10, 0x00000000)  returns 0x00 (0000ms, 0756ms total)
T240C 001:656 JLINK_WriteReg(R11, 0x00000000)  returns 0x00 (0000ms, 0756ms total)
T240C 001:656 JLINK_WriteReg(R12, 0x00000000)  returns 0x00 (0001ms, 0757ms total)
T240C 001:657 JLINK_WriteReg(R13 (SP), 0x20000800)  returns 0x00 (0000ms, 0757ms total)
T240C 001:657 JLINK_WriteReg(R14, 0x20000001)  returns 0x00 (0000ms, 0757ms total)
T240C 001:657 JLINK_WriteReg(R15 (PC), 0x200000F4)  returns 0x00 (0000ms, 0757ms total)
T240C 001:657 JLINK_WriteReg(XPSR, 0x01000000)  returns 0x00 (0000ms, 0757ms total)
T240C 001:657 JLINK_WriteReg(MSP, 0x20000800)  returns 0x00 (0000ms, 0757ms total)
T240C 001:657 JLINK_WriteReg(PSP, 0x20000800)  returns 0x00 (0000ms, 0757ms total)
T240C 001:657 JLINK_WriteReg(CFBP, 0x00000000)  returns 0x00 (0000ms, 0757ms total)
T240C 001:657 JLINK_SetBPEx(Addr = 0x20000000, Type = 0xFFFFFFF2)  returns 0x0000000B (0000ms, 0757ms total)
T240C 001:657 JLINK_Go() (0002ms, 0759ms total)
T240C 001:659 JLINK_IsHalted()  returns FALSE (0000ms, 0759ms total)
T240C 001:664 JLINK_IsHalted()  returns FALSE (0000ms, 0759ms total)
T240C 001:666 JLINK_IsHalted()  returns FALSE (0000ms, 0759ms total)
T240C 001:668 JLINK_IsHalted()  returns FALSE (0000ms, 0759ms total)
T240C 001:670 JLINK_IsHalted()  returns FALSE (0000ms, 0759ms total)
T240C 001:672 JLINK_IsHalted()  returns FALSE (0000ms, 0759ms total)
T240C 001:691 JLINK_IsHalted() -- CPU_ReadMem(2 bytes @ 0x20000000)  returns TRUE (0005ms, 0764ms total)
T240C 001:696 JLINK_ReadReg(R15 (PC))  returns 0x20000000 (0000ms, 0759ms total)
T240C 001:696 JLINK_ClrBPEx(BPHandle = 0x0000000B)  returns 0x00 (0000ms, 0759ms total)
T240C 001:696 JLINK_ReadReg(R0)  returns 0x00000000 (0000ms, 0759ms total)
T240C 001:696 JLINK_WriteMem(0x20000164, 0x0400 Bytes, ...) - Data: F0 81 4F F6 FF 71 01 80 02 21 81 70 04 21 C1 70 ... -- CPU_WriteMem(1024 bytes @ 0x20000164)  returns 0x400 (0012ms, 0771ms total)
T240C 001:708 JLINK_WriteReg(R0, 0x08001C00)  returns 0x00 (0000ms, 0771ms total)
T240C 001:708 JLINK_WriteReg(R1, 0x00000400)  returns 0x00 (0000ms, 0771ms total)
T240C 001:708 JLINK_WriteReg(R2, 0x20000164)  returns 0x00 (0000ms, 0771ms total)
T240C 001:708 JLINK_WriteReg(R3, 0x00000000)  returns 0x00 (0000ms, 0771ms total)
T240C 001:708 JLINK_WriteReg(R4, 0x00000000)  returns 0x00 (0000ms, 0771ms total)
T240C 001:708 JLINK_WriteReg(R5, 0x00000000)  returns 0x00 (0000ms, 0771ms total)
T240C 001:708 JLINK_WriteReg(R6, 0x00000000)  returns 0x00 (0000ms, 0771ms total)
T240C 001:708 JLINK_WriteReg(R7, 0x00000000)  returns 0x00 (0000ms, 0771ms total)
T240C 001:708 JLINK_WriteReg(R8, 0x00000000)  returns 0x00 (0000ms, 0771ms total)
T240C 001:708 JLINK_WriteReg(R9, 0x20000160)  returns 0x00 (0000ms, 0771ms total)
T240C 001:708 JLINK_WriteReg(R10, 0x00000000)  returns 0x00 (0000ms, 0771ms total)
T240C 001:708 JLINK_WriteReg(R11, 0x00000000)  returns 0x00 (0000ms, 0771ms total)
T240C 001:708 JLINK_WriteReg(R12, 0x00000000)  returns 0x00 (0000ms, 0771ms total)
T240C 001:708 JLINK_WriteReg(R13 (SP), 0x20000800)  returns 0x00 (0000ms, 0771ms total)
T240C 001:708 JLINK_WriteReg(R14, 0x20000001)  returns 0x00 (0000ms, 0771ms total)
T240C 001:708 JLINK_WriteReg(R15 (PC), 0x200000F4)  returns 0x00 (0000ms, 0771ms total)
T240C 001:708 JLINK_WriteReg(XPSR, 0x01000000)  returns 0x00 (0000ms, 0771ms total)
T240C 001:708 JLINK_WriteReg(MSP, 0x20000800)  returns 0x00 (0000ms, 0771ms total)
T240C 001:708 JLINK_WriteReg(PSP, 0x20000800)  returns 0x00 (0000ms, 0771ms total)
T240C 001:708 JLINK_WriteReg(CFBP, 0x00000000)  returns 0x00 (0000ms, 0771ms total)
T240C 001:708 JLINK_SetBPEx(Addr = 0x20000000, Type = 0xFFFFFFF2)  returns 0x0000000C (0000ms, 0771ms total)
T240C 001:708 JLINK_Go() (0002ms, 0773ms total)
T240C 001:710 JLINK_IsHalted()  returns FALSE (0001ms, 0774ms total)
T240C 001:743 JLINK_IsHalted() -- CPU_ReadMem(2 bytes @ 0x20000000)  returns TRUE (0005ms, 0778ms total)
T240C 001:748 JLINK_ReadReg(R15 (PC))  returns 0x20000000 (0000ms, 0773ms total)
T240C 001:748 JLINK_ClrBPEx(BPHandle = 0x0000000C)  returns 0x00 (0000ms, 0773ms total)
T240C 001:748 JLINK_ReadReg(R0)  returns 0x00000000 (0000ms, 0773ms total)
T240C 001:748 JLINK_WriteMem(0x20000164, 0x0400 Bytes, ...) - Data: 02 80 70 47 21 B1 02 88 42 F4 80 52 02 80 04 E0 ... -- CPU_WriteMem(1024 bytes @ 0x20000164)  returns 0x400 (0011ms, 0784ms total)
T240C 001:759 JLINK_WriteReg(R0, 0x08002000)  returns 0x00 (0001ms, 0785ms total)
T240C 001:760 JLINK_WriteReg(R1, 0x00000400)  returns 0x00 (0000ms, 0785ms total)
T240C 001:760 JLINK_WriteReg(R2, 0x20000164)  returns 0x00 (0000ms, 0785ms total)
T240C 001:760 JLINK_WriteReg(R3, 0x00000000)  returns 0x00 (0000ms, 0785ms total)
T240C 001:760 JLINK_WriteReg(R4, 0x00000000)  returns 0x00 (0000ms, 0785ms total)
T240C 001:760 JLINK_WriteReg(R5, 0x00000000)  returns 0x00 (0000ms, 0785ms total)
T240C 001:760 JLINK_WriteReg(R6, 0x00000000)  returns 0x00 (0000ms, 0785ms total)
T240C 001:760 JLINK_WriteReg(R7, 0x00000000)  returns 0x00 (0000ms, 0785ms total)
T240C 001:760 JLINK_WriteReg(R8, 0x00000000)  returns 0x00 (0000ms, 0785ms total)
T240C 001:760 JLINK_WriteReg(R9, 0x20000160)  returns 0x00 (0000ms, 0785ms total)
T240C 001:760 JLINK_WriteReg(R10, 0x00000000)  returns 0x00 (0000ms, 0785ms total)
T240C 001:760 JLINK_WriteReg(R11, 0x00000000)  returns 0x00 (0000ms, 0785ms total)
T240C 001:760 JLINK_WriteReg(R12, 0x00000000)  returns 0x00 (0000ms, 0785ms total)
T240C 001:760 JLINK_WriteReg(R13 (SP), 0x20000800)  returns 0x00 (0000ms, 0785ms total)
T240C 001:760 JLINK_WriteReg(R14, 0x20000001)  returns 0x00 (0000ms, 0785ms total)
T240C 001:760 JLINK_WriteReg(R15 (PC), 0x200000F4)  returns 0x00 (0000ms, 0785ms total)
T240C 001:760 JLINK_WriteReg(XPSR, 0x01000000)  returns 0x00 (0000ms, 0785ms total)
T240C 001:760 JLINK_WriteReg(MSP, 0x20000800)  returns 0x00 (0000ms, 0785ms total)
T240C 001:760 JLINK_WriteReg(PSP, 0x20000800)  returns 0x00 (0000ms, 0785ms total)
T240C 001:760 JLINK_WriteReg(CFBP, 0x00000000)  returns 0x00 (0000ms, 0785ms total)
T240C 001:760 JLINK_SetBPEx(Addr = 0x20000000, Type = 0xFFFFFFF2)  returns 0x0000000D (0000ms, 0785ms total)
T240C 001:760 JLINK_Go() (0002ms, 0787ms total)
T240C 001:762 JLINK_IsHalted()  returns FALSE (0001ms, 0788ms total)
T240C 001:767 JLINK_IsHalted()  returns FALSE (0000ms, 0787ms total)
T240C 001:769 JLINK_IsHalted()  returns FALSE (0000ms, 0787ms total)
T240C 001:771 JLINK_IsHalted()  returns FALSE (0001ms, 0788ms total)
T240C 001:774 JLINK_IsHalted()  returns FALSE (0000ms, 0787ms total)
T240C 001:776 JLINK_IsHalted()  returns FALSE (0001ms, 0788ms total)
T240C 001:779 JLINK_IsHalted()  returns FALSE (0000ms, 0787ms total)
T240C 001:781 JLINK_IsHalted()  returns FALSE (0000ms, 0787ms total)
T240C 001:796 JLINK_IsHalted() -- CPU_ReadMem(2 bytes @ 0x20000000)  returns TRUE (0005ms, 0792ms total)
T240C 001:801 JLINK_ReadReg(R15 (PC))  returns 0x20000000 (0000ms, 0787ms total)
T240C 001:801 JLINK_ClrBPEx(BPHandle = 0x0000000D)  returns 0x00 (0000ms, 0787ms total)
T240C 001:801 JLINK_ReadReg(R0)  returns 0x00000000 (0000ms, 0787ms total)
T240C 001:801 JLINK_WriteMem(0x20000164, 0x0400 Bytes, ...) - Data: 04 E0 02 88 4B F6 FF 73 1A 40 02 80 70 47 02 46 ... -- CPU_WriteMem(1024 bytes @ 0x20000164)  returns 0x400 (0012ms, 0799ms total)
T240C 001:813 JLINK_WriteReg(R0, 0x08002400)  returns 0x00 (0000ms, 0799ms total)
T240C 001:813 JLINK_WriteReg(R1, 0x00000400)  returns 0x00 (0000ms, 0799ms total)
T240C 001:813 JLINK_WriteReg(R2, 0x20000164)  returns 0x00 (0000ms, 0799ms total)
T240C 001:813 JLINK_WriteReg(R3, 0x00000000)  returns 0x00 (0000ms, 0799ms total)
T240C 001:813 JLINK_WriteReg(R4, 0x00000000)  returns 0x00 (0000ms, 0799ms total)
T240C 001:813 JLINK_WriteReg(R5, 0x00000000)  returns 0x00 (0000ms, 0799ms total)
T240C 001:813 JLINK_WriteReg(R6, 0x00000000)  returns 0x00 (0000ms, 0799ms total)
T240C 001:813 JLINK_WriteReg(R7, 0x00000000)  returns 0x00 (0000ms, 0799ms total)
T240C 001:813 JLINK_WriteReg(R8, 0x00000000)  returns 0x00 (0000ms, 0799ms total)
T240C 001:813 JLINK_WriteReg(R9, 0x20000160)  returns 0x00 (0000ms, 0799ms total)
T240C 001:813 JLINK_WriteReg(R10, 0x00000000)  returns 0x00 (0000ms, 0799ms total)
T240C 001:813 JLINK_WriteReg(R11, 0x00000000)  returns 0x00 (0000ms, 0799ms total)
T240C 001:813 JLINK_WriteReg(R12, 0x00000000)  returns 0x00 (0000ms, 0799ms total)
T240C 001:813 JLINK_WriteReg(R13 (SP), 0x20000800)  returns 0x00 (0000ms, 0799ms total)
T240C 001:813 JLINK_WriteReg(R14, 0x20000001)  returns 0x00 (0000ms, 0799ms total)
T240C 001:813 JLINK_WriteReg(R15 (PC), 0x200000F4)  returns 0x00 (0000ms, 0799ms total)
T240C 001:813 JLINK_WriteReg(XPSR, 0x01000000)  returns 0x00 (0000ms, 0799ms total)
T240C 001:813 JLINK_WriteReg(MSP, 0x20000800)  returns 0x00 (0000ms, 0799ms total)
T240C 001:813 JLINK_WriteReg(PSP, 0x20000800)  returns 0x00 (0000ms, 0799ms total)
T240C 001:813 JLINK_WriteReg(CFBP, 0x00000000)  returns 0x00 (0000ms, 0799ms total)
T240C 001:813 JLINK_SetBPEx(Addr = 0x20000000, Type = 0xFFFFFFF2)  returns 0x0000000E (0000ms, 0799ms total)
T240C 001:813 JLINK_Go() (0002ms, 0801ms total)
T240C 001:815 JLINK_IsHalted()  returns FALSE (0001ms, 0802ms total)
T240C 001:852 JLINK_IsHalted() -- CPU_ReadMem(2 bytes @ 0x20000000)  returns TRUE (0004ms, 0805ms total)
T240C 001:856 JLINK_ReadReg(R15 (PC))  returns 0x20000000 (0000ms, 0801ms total)
T240C 001:856 JLINK_ClrBPEx(BPHandle = 0x0000000E)  returns 0x00 (0001ms, 0802ms total)
T240C 001:857 JLINK_ReadReg(R0)  returns 0x00000000 (0000ms, 0802ms total)
T240C 001:857 JLINK_WriteMem(0x20000164, 0x0400 Bytes, ...) - Data: 00 00 FF F8 FF FF F6 FE 00 00 42 42 80 04 42 42 ... -- CPU_WriteMem(1024 bytes @ 0x20000164)  returns 0x400 (0011ms, 0813ms total)
T240C 001:868 JLINK_WriteReg(R0, 0x08002800)  returns 0x00 (0000ms, 0813ms total)
T240C 001:868 JLINK_WriteReg(R1, 0x00000400)  returns 0x00 (0000ms, 0813ms total)
T240C 001:868 JLINK_WriteReg(R2, 0x20000164)  returns 0x00 (0000ms, 0813ms total)
T240C 001:868 JLINK_WriteReg(R3, 0x00000000)  returns 0x00 (0000ms, 0813ms total)
T240C 001:868 JLINK_WriteReg(R4, 0x00000000)  returns 0x00 (0000ms, 0813ms total)
T240C 001:868 JLINK_WriteReg(R5, 0x00000000)  returns 0x00 (0000ms, 0813ms total)
T240C 001:868 JLINK_WriteReg(R6, 0x00000000)  returns 0x00 (0000ms, 0813ms total)
T240C 001:868 JLINK_WriteReg(R7, 0x00000000)  returns 0x00 (0000ms, 0813ms total)
T240C 001:868 JLINK_WriteReg(R8, 0x00000000)  returns 0x00 (0000ms, 0813ms total)
T240C 001:868 JLINK_WriteReg(R9, 0x20000160)  returns 0x00 (0000ms, 0813ms total)
T240C 001:868 JLINK_WriteReg(R10, 0x00000000)  returns 0x00 (0001ms, 0814ms total)
T240C 001:869 JLINK_WriteReg(R11, 0x00000000)  returns 0x00 (0000ms, 0814ms total)
T240C 001:869 JLINK_WriteReg(R12, 0x00000000)  returns 0x00 (0000ms, 0814ms total)
T240C 001:869 JLINK_WriteReg(R13 (SP), 0x20000800)  returns 0x00 (0000ms, 0814ms total)
T240C 001:869 JLINK_WriteReg(R14, 0x20000001)  returns 0x00 (0000ms, 0814ms total)
T240C 001:869 JLINK_WriteReg(R15 (PC), 0x200000F4)  returns 0x00 (0000ms, 0814ms total)
T240C 001:869 JLINK_WriteReg(XPSR, 0x01000000)  returns 0x00 (0000ms, 0814ms total)
T240C 001:869 JLINK_WriteReg(MSP, 0x20000800)  returns 0x00 (0000ms, 0814ms total)
T240C 001:869 JLINK_WriteReg(PSP, 0x20000800)  returns 0x00 (0000ms, 0814ms total)
T240C 001:869 JLINK_WriteReg(CFBP, 0x00000000)  returns 0x00 (0000ms, 0814ms total)
T240C 001:869 JLINK_SetBPEx(Addr = 0x20000000, Type = 0xFFFFFFF2)  returns 0x0000000F (0000ms, 0814ms total)
T240C 001:869 JLINK_Go() (0002ms, 0816ms total)
T240C 001:871 JLINK_IsHalted()  returns FALSE (0001ms, 0817ms total)
T240C 001:874 JLINK_IsHalted()  returns FALSE (0000ms, 0816ms total)
T240C 001:876 JLINK_IsHalted()  returns FALSE (0000ms, 0816ms total)
T240C 001:878 JLINK_IsHalted()  returns FALSE (0000ms, 0816ms total)
T240C 001:880 JLINK_IsHalted()  returns FALSE (0000ms, 0816ms total)
T240C 001:882 JLINK_IsHalted()  returns FALSE (0000ms, 0816ms total)
T240C 001:884 JLINK_IsHalted()  returns FALSE (0000ms, 0816ms total)
T240C 001:886 JLINK_IsHalted()  returns FALSE (0000ms, 0816ms total)
T240C 001:888 JLINK_IsHalted()  returns FALSE (0000ms, 0816ms total)
T240C 001:890 JLINK_IsHalted()  returns FALSE (0000ms, 0816ms total)
T240C 001:905 JLINK_IsHalted() -- CPU_ReadMem(2 bytes @ 0x20000000)  returns TRUE (0004ms, 0820ms total)
T240C 001:909 JLINK_ReadReg(R15 (PC))  returns 0x20000000 (0000ms, 0816ms total)
T240C 001:909 JLINK_ClrBPEx(BPHandle = 0x0000000F)  returns 0x00 (0000ms, 0816ms total)
T240C 001:909 JLINK_ReadReg(R0)  returns 0x00000000 (0000ms, 0816ms total)
T240C 001:910 JLINK_WriteMem(0x20000164, 0x0400 Bytes, ...) - Data: D6 11 28 46 FF F7 80 FE 80 46 B8 F1 00 0F 00 D0 ... -- CPU_WriteMem(1024 bytes @ 0x20000164)  returns 0x400 (0011ms, 0827ms total)
T240C 001:921 JLINK_WriteReg(R0, 0x08002C00)  returns 0x00 (0000ms, 0827ms total)
T240C 001:921 JLINK_WriteReg(R1, 0x00000400)  returns 0x00 (0000ms, 0827ms total)
T240C 001:921 JLINK_WriteReg(R2, 0x20000164)  returns 0x00 (0000ms, 0827ms total)
T240C 001:921 JLINK_WriteReg(R3, 0x00000000)  returns 0x00 (0000ms, 0827ms total)
T240C 001:921 JLINK_WriteReg(R4, 0x00000000)  returns 0x00 (0000ms, 0827ms total)
T240C 001:921 JLINK_WriteReg(R5, 0x00000000)  returns 0x00 (0000ms, 0827ms total)
T240C 001:921 JLINK_WriteReg(R6, 0x00000000)  returns 0x00 (0000ms, 0827ms total)
T240C 001:921 JLINK_WriteReg(R7, 0x00000000)  returns 0x00 (0000ms, 0827ms total)
T240C 001:921 JLINK_WriteReg(R8, 0x00000000)  returns 0x00 (0000ms, 0827ms total)
T240C 001:921 JLINK_WriteReg(R9, 0x20000160)  returns 0x00 (0000ms, 0827ms total)
T240C 001:921 JLINK_WriteReg(R10, 0x00000000)  returns 0x00 (0000ms, 0827ms total)
T240C 001:921 JLINK_WriteReg(R11, 0x00000000)  returns 0x00 (0000ms, 0827ms total)
T240C 001:921 JLINK_WriteReg(R12, 0x00000000)  returns 0x00 (0000ms, 0827ms total)
T240C 001:921 JLINK_WriteReg(R13 (SP), 0x20000800)  returns 0x00 (0000ms, 0827ms total)
T240C 001:921 JLINK_WriteReg(R14, 0x20000001)  returns 0x00 (0000ms, 0827ms total)
T240C 001:922 JLINK_WriteReg(R15 (PC), 0x200000F4)  returns 0x00 (0000ms, 0827ms total)
T240C 001:922 JLINK_WriteReg(XPSR, 0x01000000)  returns 0x00 (0000ms, 0827ms total)
T240C 001:922 JLINK_WriteReg(MSP, 0x20000800)  returns 0x00 (0000ms, 0827ms total)
T240C 001:922 JLINK_WriteReg(PSP, 0x20000800)  returns 0x00 (0000ms, 0827ms total)
T240C 001:922 JLINK_WriteReg(CFBP, 0x00000000)  returns 0x00 (0000ms, 0827ms total)
T240C 001:922 JLINK_SetBPEx(Addr = 0x20000000, Type = 0xFFFFFFF2)  returns 0x00000010 (0000ms, 0827ms total)
T240C 001:922 JLINK_Go() (0002ms, 0829ms total)
T240C 001:924 JLINK_IsHalted()  returns FALSE (0000ms, 0829ms total)
T240C 001:953 JLINK_IsHalted()  returns FALSE (0000ms, 0829ms total)
T240C 001:955 JLINK_IsHalted() -- CPU_ReadMem(2 bytes @ 0x20000000)  returns TRUE (0004ms, 0833ms total)
T240C 001:959 JLINK_ReadReg(R15 (PC))  returns 0x20000000 (0000ms, 0829ms total)
T240C 001:959 JLINK_ClrBPEx(BPHandle = 0x00000010)  returns 0x00 (0000ms, 0829ms total)
T240C 001:959 JLINK_ReadReg(R0)  returns 0x00000000 (0000ms, 0829ms total)
T240C 001:960 JLINK_WriteMem(0x20000164, 0x0400 Bytes, ...) - Data: 4E B1 80 2A 01 DB 00 20 F0 BD 26 46 10 46 52 1C ... -- CPU_WriteMem(1024 bytes @ 0x20000164)  returns 0x400 (0011ms, 0840ms total)
T240C 001:971 JLINK_WriteReg(R0, 0x08003000)  returns 0x00 (0000ms, 0840ms total)
T240C 001:971 JLINK_WriteReg(R1, 0x00000400)  returns 0x00 (0000ms, 0840ms total)
T240C 001:971 JLINK_WriteReg(R2, 0x20000164)  returns 0x00 (0000ms, 0840ms total)
T240C 001:971 JLINK_WriteReg(R3, 0x00000000)  returns 0x00 (0000ms, 0840ms total)
T240C 001:971 JLINK_WriteReg(R4, 0x00000000)  returns 0x00 (0000ms, 0840ms total)
T240C 001:971 JLINK_WriteReg(R5, 0x00000000)  returns 0x00 (0000ms, 0840ms total)
T240C 001:971 JLINK_WriteReg(R6, 0x00000000)  returns 0x00 (0000ms, 0840ms total)
T240C 001:971 JLINK_WriteReg(R7, 0x00000000)  returns 0x00 (0000ms, 0840ms total)
T240C 001:971 JLINK_WriteReg(R8, 0x00000000)  returns 0x00 (0000ms, 0840ms total)
T240C 001:971 JLINK_WriteReg(R9, 0x20000160)  returns 0x00 (0000ms, 0840ms total)
T240C 001:971 JLINK_WriteReg(R10, 0x00000000)  returns 0x00 (0000ms, 0840ms total)
T240C 001:971 JLINK_WriteReg(R11, 0x00000000)  returns 0x00 (0000ms, 0840ms total)
T240C 001:971 JLINK_WriteReg(R12, 0x00000000)  returns 0x00 (0000ms, 0840ms total)
T240C 001:971 JLINK_WriteReg(R13 (SP), 0x20000800)  returns 0x00 (0000ms, 0840ms total)
T240C 001:972 JLINK_WriteReg(R14, 0x20000001)  returns 0x00 (0000ms, 0841ms total)
T240C 001:972 JLINK_WriteReg(R15 (PC), 0x200000F4)  returns 0x00 (0000ms, 0841ms total)
